T3584 2218:867 SEGGER J-Link V6.44a Log File (0000ms, 1582ms total)
T3584 2218:867 DLL Compiled: Mar  8 2019 17:31:48 (0000ms, 1582ms total)
T3584 2218:867 Logging started @ 2024-05-28 16:59 (0000ms, 1582ms total)
T3584 2218:867 JLINK_SetWarnOutHandler(...) (0000ms, 1582ms total)
T3584 2218:867 JLINK_OpenEx(...)
Firmware: J-Link STLink V2 compiled Jun 26 2017 10:34:41
Hardware: V1.00
S/N: 771367345
TELNET listener socket opened on port 19021WEBSRV 
Starting webserver (0011ms, 1593ms total)
T3584 2218:867 WEBSRV Webserver running on local port 19080 (0011ms, 1593ms total)
T3584 2218:867   returns O.K. (0011ms, 1593ms total)
T3584 2218:878 JLINK_GetEmuCaps()  returns 0x98EA5A33 (0000ms, 1593ms total)
T3584 2218:878 JLINK_TIF_GetAvailable(...) (0001ms, 1594ms total)
T3584 2218:879 JLINK_SetErrorOutHandler(...) (0000ms, 1594ms total)
T3584 2218:879 JLINK_ExecCommand("ProjectFile = "D:\STM_prj\dalic\JLinkSettings.ini"", ...).   returns 0x00 (0000ms, 1594ms total)
T3584 2218:880 JLINK_ExecCommand("Device = STM32F103CB", ...). Device "STM32F103CB" selected.  returns 0x00 (0000ms, 1595ms total)
T3584 2218:880 JLINK_ExecCommand("DisableConnectionTimeout", ...).   returns 0x01 (0000ms, 1595ms total)
T3584 2218:880 JLINK_GetHardwareVersion()  returns 0x2710 (0000ms, 1595ms total)
T3584 2218:880 JLINK_GetDLLVersion()  returns 64401 (0000ms, 1595ms total)
T3584 2218:880 JLINK_GetFirmwareString(...) (0000ms, 1595ms total)
T3584 2218:880 JLINK_GetDLLVersion()  returns 64401 (0000ms, 1595ms total)
T3584 2218:880 JLINK_GetCompileDateTime() (0001ms, 1596ms total)
T3584 2218:881 JLINK_GetFirmwareString(...) (0000ms, 1596ms total)
T3584 2218:881 JLINK_GetHardwareVersion()  returns 0x2710 (0000ms, 1596ms total)
T3584 2218:881 JLINK_TIF_Select(JLINKARM_TIF_SWD)  returns 0x00 (0001ms, 1597ms total)
T3584 2218:882 JLINK_SetSpeed(5000) (0000ms, 1597ms total)
T3584 2218:882 JLINK_GetId() >0x10B TIF>Found SW-DP with ID 0x1BA01477 >0x0D TIF> >0x28 TIF> >0x0D TIF> >0x28 TIF> >0x0D TIF> >0x28 TIF> >0x0D TIF> >0x28 TIF> >0x0D TIF> >0x21 TIF> >0x0D TIF> >0x28 TIF> >0x0D TIF> >0x28 TIF> >0x0D TIF> >0x28 TIF> >0x0D TIF> >0x21 TIF> >0x0D TIF> >0x21 TIF> >0x0D TIF> >0x28 TIF> >0x0D TIF> >0x21 TIF> >0x0D TIF> >0x21 TIF> >0x0D TIF> >0x28 TIF> >0x0D TIF> >0x21 TIF> >0x0D TIF> >0x21 TIF> >0x0D TIF> >0x28 TIF> >0x0D TIF> >0x21 TIF> >0x0D TIF> >0x21 TIF> >0x0D TIF>
 >0x28 TIF> >0x0D TIF> >0x21 TIF> >0x0D TIF> >0x21 TIF> >0x0D TIF> >0x28 TIF> >0x0D TIF> >0x21 TIF> >0x0D TIF> >0x21 TIF> >0x0D TIF> >0x28 TIF> >0x0D TIF> >0x21 TIF> >0x0D TIF> >0x21 TIF> >0x10B TIF>Found SW-DP with ID 0x1BA01477 >0x0D TIF> >0x28 TIF> >0x0D TIF> >0x28 TIF> >0x0D TIF> >0x28 TIF> >0x0D TIF> >0x28 TIF> >0x0D TIF> >0x21 TIF> >0x0D TIF> >0x28 TIF>Scanning AP map to find all available APs >0x0D TIF> >0x28 TIF> >0x0D TIF> >0x21 TIF> >0x0D TIF> >0x21 TIF> >0x0D TIF> >0x28 TIF> >0x0D TIF>
 >0x21 TIF> >0x0D TIF> >0x21 TIF>AP[1]: Stopped AP scan as end of AP map has been reachedAP[0]: AHB-AP (IDR: 0x14770011)Iterating through AP map to find AHB-AP to use >0x42 TIF> >0x28 TIF> >0x0D TIF> >0x28 TIF> >0x0D TIF> >0x21 TIF> >0x0D TIF> >0x21 TIF> >0x42 TIF> >0x28 TIF> >0x0D TIF> >0x28 TIF> >0x0D TIF> >0x28 TIF> >0x0D TIF> >0x21 TIF> >0x0D TIF> >0x21 TIF>AP[0]: Core foundAP[0]: AHB-AP ROM base: 0xE00FF000 >0x0D TIF> >0x28 TIF> >0x0D TIF> >0x28 TIF> >0x0D TIF> >0x28 TIF> >0x0D TIF> >0x21 TIF>
 >0x0D TIF> >0x21 TIF>CPUID register: 0x411FC231. Implementer code: 0x41 (ARM)Found Cortex-M3 r1p1, Little endian. -- Max. mem block: 0x000036A0 -- CPU_ReadMem(4 bytes @ 0xE000EDF0) -- CPU_ReadMem(4 bytes @ 0xE0002000)FPUnit: 6 code (BP) slots and 2 literal slots -- CPU_ReadMem(4 bytes @ 0xE000EDFC) -- CPU_ReadMem(4 bytes @ 0xE0001000) -- CPU_WriteMem(4 bytes @ 0xE0001000) -- CPU_ReadMem(4 bytes @ 0xE000ED88) -- CPU_WriteMem(4 bytes @ 0xE000ED88) -- CPU_ReadMem(4 bytes @ 0xE000ED88)
 -- CPU_WriteMem(4 bytes @ 0xE000ED88)CoreSight components:ROMTbl[0] @ E00FF000 -- CPU_ReadMem(16 bytes @ 0xE00FF000) -- CPU_ReadMem(16 bytes @ 0xE000EFF0) -- CPU_ReadMem(16 bytes @ 0xE000EFE0)ROMTbl[0][0]: E000E000, CID: B105E00D, PID: 001BB000 SCS -- CPU_ReadMem(16 bytes @ 0xE0001FF0) -- CPU_ReadMem(16 bytes @ 0xE0001FE0)ROMTbl[0][1]: E0001000, CID: B105E00D, PID: 001BB002 DWT -- CPU_ReadMem(16 bytes @ 0xE0002FF0) -- CPU_ReadMem(16 bytes @ 0xE0002FE0)
ROMTbl[0][2]: E0002000, CID: B105E00D, PID: 000BB003 FPB -- CPU_ReadMem(16 bytes @ 0xE0000FF0) -- CPU_ReadMem(16 bytes @ 0xE0000FE0)ROMTbl[0][3]: E0000000, CID: B105E00D, PID: 001BB001 ITM -- CPU_ReadMem(16 bytes @ 0xE00FF010) -- CPU_ReadMem(16 bytes @ 0xE0040FF0) -- CPU_ReadMem(16 bytes @ 0xE0040FE0)ROMTbl[0][4]: E0040000, CID: B105900D, PID: 001BB923 TPIU-Lite >0x0D TIF> >0x21 TIF>  returns 0x1BA01477 (0138ms, 1735ms total)
T3584 2219:020 JLINK_GetDLLVersion()  returns 64401 (0000ms, 1735ms total)
T3584 2219:020 JLINK_CORE_GetFound()  returns 0x30000FF (0000ms, 1735ms total)
T3584 2219:020 JLINK_GetDebugInfo(0x100 = JLINKARM_ROM_TABLE_ADDR_INDEX) -- Value=0xE00FF000  returns 0x00 (0000ms, 1735ms total)
T3584 2219:020 JLINK_GetDebugInfo(0x100 = JLINKARM_ROM_TABLE_ADDR_INDEX) -- Value=0xE00FF000  returns 0x00 (0000ms, 1735ms total)
T3584 2219:020 JLINK_GetDebugInfo(0x101 = JLINKARM_DEBUG_INFO_ETM_ADDR_INDEX) -- Value=0x00000000  returns 0x00 (0001ms, 1736ms total)
T3584 2219:021 JLINK_ReadMemEx(0xE0041FF0, 0x0010 Bytes, ..., Flags = 0x02000004) -- CPU_ReadMem(16 bytes @ 0xE0041FF0) - Data: 00 00 00 00 00 00 00 00 00 00 00 00 00 00 00 00  returns 0x10 (0000ms, 1736ms total)
T3584 2219:021 JLINK_GetDebugInfo(0x102 = JLINKARM_DEBUG_INFO_MTB_ADDR_INDEX) -- Value=0x00000000  returns 0x00 (0000ms, 1736ms total)
T3584 2219:021 JLINK_GetDebugInfo(0x103 = JLINKARM_DEBUG_INFO_TPIU_ADDR_INDEX) -- Value=0xE0040000  returns 0x00 (0000ms, 1736ms total)
T3584 2219:021 JLINK_GetDebugInfo(0x104 = JLINKARM_DEBUG_INFO_ITM_ADDR_INDEX) -- Value=0xE0000000  returns 0x00 (0000ms, 1736ms total)
T3584 2219:021 JLINK_GetDebugInfo(0x105 = JLINKARM_DEBUG_INFO_DWT_ADDR_INDEX) -- Value=0xE0001000  returns 0x00 (0000ms, 1736ms total)
T3584 2219:021 JLINK_GetDebugInfo(0x106 = JLINKARM_DEBUG_INFO_FPB_ADDR_INDEX) -- Value=0xE0002000  returns 0x00 (0000ms, 1736ms total)
T3584 2219:021 JLINK_GetDebugInfo(0x107 = JLINKARM_DEBUG_INFO_NVIC_ADDR_INDEX) -- Value=0xE000E000  returns 0x00 (0000ms, 1736ms total)
T3584 2219:021 JLINK_GetDebugInfo(0x10C = JLINKARM_DEBUG_INFO_DBG_ADDR_INDEX) -- Value=0xE000EDF0  returns 0x00 (0000ms, 1736ms total)
T3584 2219:021 JLINK_GetDebugInfo(0x01 = Unknown) -- Value=0x00000000  returns 0x00 (0000ms, 1736ms total)
T3584 2219:021 JLINK_ReadMemU32(0xE000ED00, 0x0001 Items, ...) -- CPU_ReadMem(4 bytes @ 0xE000ED00) - Data: 31 C2 1F 41  returns 1 (0001ms, 1737ms total)
T3584 2219:022 JLINK_GetDebugInfo(0x10F = JLINKARM_DEBUG_INFO_HAS_CORTEX_M_SECURITY_EXT_INDEX) -- Value=0x00000000  returns 0x00 (0000ms, 1737ms total)
T3584 2219:022 JLINK_SetResetType(JLINKARM_CM3_RESET_TYPE_NORMAL)  returns JLINKARM_CM3_RESET_TYPE_NORMAL (0000ms, 1737ms total)
T3584 2219:022 JLINK_Reset() -- CPU is running -- CPU_WriteMem(4 bytes @ 0xE000EDF0) -- CPU is running -- CPU_WriteMem(4 bytes @ 0xE000EDFC)Reset: Halt core after reset via DEMCR.VC_CORERESET. >0x35 TIF>Reset: Reset device via AIRCR.SYSRESETREQ. -- CPU is running -- CPU_WriteMem(4 bytes @ 0xE000ED0C) >0x0D TIF> >0x28 TIF> -- CPU_ReadMem(4 bytes @ 0xE000EDF0) -- CPU_ReadMem(4 bytes @ 0xE000EDF0) -- CPU is running -- CPU_WriteMem(4 bytes @ 0xE000EDF0) -- CPU is running -- CPU_WriteMem(4 bytes @ 0xE000EDFC)
 -- CPU_ReadMem(4 bytes @ 0xE000EDF0) -- CPU_WriteMem(4 bytes @ 0xE0002000) -- CPU_ReadMem(4 bytes @ 0xE000EDFC) -- CPU_ReadMem(4 bytes @ 0xE0001000) (0070ms, 1807ms total)
T3584 2219:093 JLINK_ReadReg(R15 (PC))  returns 0x080001B0 (0000ms, 1807ms total)
T3584 2219:093 JLINK_ReadReg(XPSR)  returns 0x01000000 (0000ms, 1807ms total)
T3584 2219:093 JLINK_Halt()  returns 0x00 (0000ms, 1807ms total)
T3584 2219:093 JLINK_ReadMemU32(0xE000EDF0, 0x0001 Items, ...) -- CPU_ReadMem(4 bytes @ 0xE000EDF0) - Data: 03 00 03 00  returns 1 (0001ms, 1808ms total)
T3584 2219:094 JLINK_WriteU32(0xE000EDF0, 0xA05F0003) -- CPU_WriteMem(4 bytes @ 0xE000EDF0)  returns 0 (0001ms, 1809ms total)
T3584 2219:095 JLINK_WriteU32(0xE000EDFC, 0x01000000) -- CPU_WriteMem(4 bytes @ 0xE000EDFC)  returns 0 (0001ms, 1810ms total)
T3584 2219:096 JLINK_GetHWStatus(...)  returns 0x00 (0000ms, 1810ms total)
T3584 2219:096 JLINK_GetNumBPUnits(Type = 0xFFFFFF00)  returns 0x06 (0000ms, 1810ms total)
T3584 2219:096 JLINK_GetNumBPUnits(Type = 0xF0)  returns 0x2000 (0000ms, 1810ms total)
T3584 2219:096 JLINK_GetNumWPUnits()  returns 0x04 (0000ms, 1810ms total)
T3584 2219:097 JLINK_GetSpeed()  returns 0xFA0 (0000ms, 1810ms total)
T3584 2219:097 JLINK_ReadMemU32(0xE000E004, 0x0001 Items, ...) -- CPU_ReadMem(4 bytes @ 0xE000E004) - Data: 01 00 00 00  returns 1 (0001ms, 1811ms total)
T3584 2219:098 JLINK_ReadMemU32(0xE000E004, 0x0001 Items, ...) -- CPU_ReadMem(4 bytes @ 0xE000E004) - Data: 01 00 00 00  returns 1 (0001ms, 1812ms total)
T3584 2219:099 JLINK_WriteMemEx(0xE0001000, 0x001C Bytes, ..., Flags = 0x02000004) - Data: 01 00 00 00 00 00 00 00 00 00 00 00 00 00 00 00 ... -- CPU_WriteMem(28 bytes @ 0xE0001000)  returns 0x1C (0002ms, 1814ms total)
T3584 2219:101 JLINK_ReadReg(R15 (PC))  returns 0x080001B0 (0000ms, 1814ms total)
T3584 2219:101 JLINK_ReadReg(XPSR)  returns 0x01000000 (0000ms, 1814ms total)
T3584 2219:113 JLINK_ReadMemEx(0xE0001004, 0x0004 Bytes, ..., Flags = 0x02000000) - Data: 00 00 00 00  returns 0x04 (0000ms, 1814ms total)
T3584 2219:147 JLINK_ReadMemEx(0x40010000, 0x0014 Bytes, ..., Flags = 0x02000004) -- CPU_ReadMem(20 bytes @ 0x40010000) - Data: 00 00 00 00 00 00 00 00 00 00 00 00 00 00 00 00 ...  returns 0x14 (0001ms, 1815ms total)
T3584 2219:148 JLINK_ReadMemEx(0x40010014, 0x0004 Bytes, ..., Flags = 0x02000004) -- CPU_ReadMem(4 bytes @ 0x40010014) - Data: 00 00 00 00  returns 0x04 (0000ms, 1815ms total)
T3584 2219:148 JLINK_ReadMemEx(0x4001001C, 0x0004 Bytes, ..., Flags = 0x02000004) -- CPU_ReadMem(4 bytes @ 0x4001001C) - Data: 00 00 00 00  returns 0x04 (0002ms, 1817ms total)
T3584 2219:198 JLINK_ReadMemEx(0x40010400, 0x0014 Bytes, ..., Flags = 0x02000004) -- CPU_ReadMem(20 bytes @ 0x40010400) - Data: 00 00 00 00 00 00 00 00 00 00 00 00 00 00 00 00 ...  returns 0x14 (0000ms, 1817ms total)
T3584 2219:198 JLINK_ReadMemEx(0x40010414, 0x0004 Bytes, ..., Flags = 0x02000004) -- CPU_ReadMem(4 bytes @ 0x40010414) - Data: 00 00 00 00  returns 0x04 (0001ms, 1818ms total)
T3584 2219:245 JLINK_ReadMemEx(0x40010800, 0x000C Bytes, ..., Flags = 0x02000004) -- CPU_ReadMem(12 bytes @ 0x40010800) - Data: 44 44 44 44 44 44 84 88 00 00 00 00  returns 0x0C (0000ms, 1818ms total)
T3584 2219:245 JLINK_ReadMemEx(0x4001080C, 0x0004 Bytes, ..., Flags = 0x02000004) -- CPU_ReadMem(4 bytes @ 0x4001080C) - Data: 00 A0 00 00  returns 0x04 (0001ms, 1819ms total)
T3584 2219:246 JLINK_ReadMemEx(0x40010818, 0x0004 Bytes, ..., Flags = 0x02000004) -- CPU_ReadMem(4 bytes @ 0x40010818) - Data: 00 00 00 00  returns 0x04 (0000ms, 1819ms total)
T3584 2219:289 JLINK_ReadMemEx(0x40010C00, 0x000C Bytes, ..., Flags = 0x02000004) -- CPU_ReadMem(12 bytes @ 0x40010C00) - Data: 44 44 48 44 44 44 44 44 00 00 00 00  returns 0x0C (0001ms, 1820ms total)
T3584 2219:290 JLINK_ReadMemEx(0x40010C0C, 0x0004 Bytes, ..., Flags = 0x02000004) -- CPU_ReadMem(4 bytes @ 0x40010C0C) - Data: 10 00 00 00  returns 0x04 (0000ms, 1820ms total)
T3584 2219:290 JLINK_ReadMemEx(0x40010C18, 0x0004 Bytes, ..., Flags = 0x02000004) -- CPU_ReadMem(4 bytes @ 0x40010C18) - Data: 00 00 00 00  returns 0x04 (0001ms, 1821ms total)
T3584 2219:337 JLINK_ReadMemEx(0x40011000, 0x000C Bytes, ..., Flags = 0x02000004) -- CPU_ReadMem(12 bytes @ 0x40011000) - Data: 44 44 44 44 44 44 44 44 00 00 00 00  returns 0x0C (0000ms, 1821ms total)
T3584 2219:337 JLINK_ReadMemEx(0x4001100C, 0x0004 Bytes, ..., Flags = 0x02000004) -- CPU_ReadMem(4 bytes @ 0x4001100C) - Data: 00 00 00 00  returns 0x04 (0001ms, 1822ms total)
T3584 2219:338 JLINK_ReadMemEx(0x40011018, 0x0004 Bytes, ..., Flags = 0x02000004) -- CPU_ReadMem(4 bytes @ 0x40011018) - Data: 00 00 00 00  returns 0x04 (0000ms, 1822ms total)
T3584 2219:381 JLINK_ReadMemEx(0x40005800, 0x0020 Bytes, ..., Flags = 0x02000004) -- CPU_ReadMem(32 bytes @ 0x40005800) - Data: 00 00 00 00 00 00 00 00 00 00 00 00 00 00 00 00 ...  returns 0x20 (0001ms, 1823ms total)
T3584 2219:382 JLINK_ReadMemEx(0x40005820, 0x0004 Bytes, ..., Flags = 0x02000004) -- CPU_ReadMem(4 bytes @ 0x40005820) - Data: 00 00 00 00  returns 0x04 (0000ms, 1823ms total)
T3584 2219:426 JLINK_ReadMemEx(0xE000E004, 0x0004 Bytes, ..., Flags = 0x02000004) -- CPU_ReadMem(4 bytes @ 0xE000E004) - Data: 01 00 00 00  returns 0x04 (0000ms, 1823ms total)
T3584 2219:426 JLINK_ReadMemEx(0xE000E100, 0x0004 Bytes, ..., Flags = 0x02000004) -- CPU_ReadMem(4 bytes @ 0xE000E100) - Data: 00 00 00 00  returns 0x04 (0001ms, 1824ms total)
T3584 2219:427 JLINK_ReadMemEx(0xE000E104, 0x0004 Bytes, ..., Flags = 0x02000004) -- CPU_ReadMem(4 bytes @ 0xE000E104) - Data: 00 00 00 00  returns 0x04 (0000ms, 1824ms total)
T3584 2219:427 JLINK_ReadMemEx(0xE000E180, 0x0004 Bytes, ..., Flags = 0x02000004) -- CPU_ReadMem(4 bytes @ 0xE000E180) - Data: 00 00 00 00  returns 0x04 (0000ms, 1824ms total)
T3584 2219:427 JLINK_ReadMemEx(0xE000E184, 0x0004 Bytes, ..., Flags = 0x02000004) -- CPU_ReadMem(4 bytes @ 0xE000E184) - Data: 00 00 00 00  returns 0x04 (0001ms, 1825ms total)
T3584 2219:428 JLINK_ReadMemEx(0xE000E200, 0x0004 Bytes, ..., Flags = 0x02000004) -- CPU_ReadMem(4 bytes @ 0xE000E200) - Data: 00 00 00 00  returns 0x04 (0000ms, 1825ms total)
T3584 2219:428 JLINK_ReadMemEx(0xE000E204, 0x0004 Bytes, ..., Flags = 0x02000004) -- CPU_ReadMem(4 bytes @ 0xE000E204) - Data: 00 00 00 00  returns 0x04 (0001ms, 1826ms total)
T3584 2219:429 JLINK_ReadMemEx(0xE000E280, 0x0004 Bytes, ..., Flags = 0x02000004) -- CPU_ReadMem(4 bytes @ 0xE000E280) - Data: 00 00 00 00  returns 0x04 (0000ms, 1826ms total)
T3584 2219:429 JLINK_ReadMemEx(0xE000E284, 0x0004 Bytes, ..., Flags = 0x02000004) -- CPU_ReadMem(4 bytes @ 0xE000E284) - Data: 00 00 00 00  returns 0x04 (0001ms, 1827ms total)
T3584 2219:430 JLINK_ReadMemEx(0xE000E300, 0x0004 Bytes, ..., Flags = 0x02000004) -- CPU_ReadMem(4 bytes @ 0xE000E300) - Data: 00 00 00 00  returns 0x04 (0000ms, 1827ms total)
T3584 2219:430 JLINK_ReadMemEx(0xE000E304, 0x0004 Bytes, ..., Flags = 0x02000004) -- CPU_ReadMem(4 bytes @ 0xE000E304) - Data: 00 00 00 00  returns 0x04 (0001ms, 1828ms total)
T3584 2219:431 JLINK_ReadMemEx(0xE000E400, 0x0038 Bytes, ..., Flags = 0x02000004) -- CPU_ReadMem(56 bytes @ 0xE000E400) - Data: 00 00 00 00 00 00 00 00 00 00 00 00 00 00 00 00 ...  returns 0x38 (0001ms, 1829ms total)
T3584 2219:432 JLINK_ReadMemEx(0xE000E438, 0x0004 Bytes, ..., Flags = 0x02000004) -- CPU_ReadMem(4 bytes @ 0xE000E438) - Data: 00 00 00 00  returns 0x04 (0000ms, 1829ms total)
T3584 2219:477 JLINK_ReadMemEx(0x40013000, 0x0020 Bytes, ..., Flags = 0x02000004) -- CPU_ReadMem(32 bytes @ 0x40013000) - Data: 00 00 00 00 00 00 00 00 00 00 00 00 00 00 00 00 ...  returns 0x20 (0001ms, 1830ms total)
T3584 2219:478 JLINK_ReadMemEx(0x40013020, 0x0004 Bytes, ..., Flags = 0x02000004) -- CPU_ReadMem(4 bytes @ 0x40013020) - Data: 00 00 00 00  returns 0x04 (0000ms, 1830ms total)
T3584 2219:523 JLINK_ReadMemEx(0x40013800, 0x0018 Bytes, ..., Flags = 0x02000004) -- CPU_ReadMem(24 bytes @ 0x40013800) - Data: 00 00 00 00 00 00 00 00 00 00 00 00 00 00 00 00 ...  returns 0x18 (0001ms, 1831ms total)
T3584 2219:524 JLINK_ReadMemEx(0x40013818, 0x0004 Bytes, ..., Flags = 0x02000004) -- CPU_ReadMem(4 bytes @ 0x40013818) - Data: 00 00 00 00  returns 0x04 (0000ms, 1831ms total)
T3584 2221:196 JLINK_ReadMemEx(0x00000000, 0x003C Bytes, ..., Flags = 0x02000000) -- CPU_ReadMem(4 bytes @ 0x40023844) -- CPU_ReadMem(64 bytes @ 0x08000000) -- Updating C cache (64 bytes @ 0x08000000) -- Read from C cache (60 bytes @ 0x08000000) - Data: F0 25 00 20 B1 01 00 08 B9 01 00 08 BB 01 00 08 ...  returns 0x3C (0001ms, 1832ms total)
T3584 2221:197 JLINK_ReadMemEx(0x00000000, 0x0002 Bytes, ..., Flags = 0x02000000) -- Read from C cache (2 bytes @ 0x08000000) - Data: F0 25  returns 0x02 (0000ms, 1832ms total)
T3584 2221:197 JLINK_ReadMemEx(0x00000002, 0x0002 Bytes, ..., Flags = 0x02000000) -- Read from C cache (2 bytes @ 0x08000002) - Data: 00 20  returns 0x02 (0000ms, 1832ms total)
T3584 2221:197 JLINK_ReadMemEx(0x00000002, 0x0002 Bytes, ..., Flags = 0x02000000) -- Read from C cache (2 bytes @ 0x08000002) - Data: 00 20  returns 0x02 (0000ms, 1832ms total)
T3584 2221:197 JLINK_ReadMemEx(0x00000004, 0x003C Bytes, ..., Flags = 0x02000000) -- Read from C cache (60 bytes @ 0x08000004) - Data: B1 01 00 08 B9 01 00 08 BB 01 00 08 BD 01 00 08 ...  returns 0x3C (0000ms, 1832ms total)
T3584 2221:197 JLINK_ReadMemEx(0x00000004, 0x0002 Bytes, ..., Flags = 0x02000000) -- Read from C cache (2 bytes @ 0x08000004) - Data: B1 01  returns 0x02 (0000ms, 1832ms total)
T3584 2221:197 JLINK_ReadMemEx(0x00000004, 0x003C Bytes, ..., Flags = 0x02000000) -- Read from C cache (60 bytes @ 0x08000004) - Data: B1 01 00 08 B9 01 00 08 BB 01 00 08 BD 01 00 08 ...  returns 0x3C (0000ms, 1832ms total)
T3584 2221:197 JLINK_ReadMemEx(0x00000004, 0x0002 Bytes, ..., Flags = 0x02000000) -- Read from C cache (2 bytes @ 0x08000004) - Data: B1 01  returns 0x02 (0000ms, 1832ms total)
T3584 2221:197 JLINK_ReadMemEx(0x00000006, 0x0002 Bytes, ..., Flags = 0x02000000) -- Read from C cache (2 bytes @ 0x08000006) - Data: 00 08  returns 0x02 (0000ms, 1832ms total)
T3584 2221:197 JLINK_ReadMemEx(0x00000006, 0x0002 Bytes, ..., Flags = 0x02000000) -- Read from C cache (2 bytes @ 0x08000006) - Data: 00 08  returns 0x02 (0000ms, 1832ms total)
T3584 2221:197 JLINK_ReadMemEx(0x00000008, 0x003C Bytes, ..., Flags = 0x02000000) -- CPU_ReadMem(64 bytes @ 0x08000040) -- Updating C cache (64 bytes @ 0x08000040) -- Read from C cache (60 bytes @ 0x08000008) - Data: B9 01 00 08 BB 01 00 08 BD 01 00 08 BF 01 00 08 ...  returns 0x3C (0001ms, 1833ms total)
T3584 2221:198 JLINK_ReadMemEx(0x00000008, 0x0002 Bytes, ..., Flags = 0x02000000) -- Read from C cache (2 bytes @ 0x08000008) - Data: B9 01  returns 0x02 (0000ms, 1833ms total)
T3584 2221:198 JLINK_ReadMemEx(0x00000008, 0x003C Bytes, ..., Flags = 0x02000000) -- Read from C cache (60 bytes @ 0x08000008) - Data: B9 01 00 08 BB 01 00 08 BD 01 00 08 BF 01 00 08 ...  returns 0x3C (0000ms, 1833ms total)
T3584 2221:198 JLINK_ReadMemEx(0x00000008, 0x0002 Bytes, ..., Flags = 0x02000000) -- Read from C cache (2 bytes @ 0x08000008) - Data: B9 01  returns 0x02 (0000ms, 1833ms total)
T3584 2221:198 JLINK_ReadMemEx(0x0000000A, 0x0002 Bytes, ..., Flags = 0x02000000) -- Read from C cache (2 bytes @ 0x0800000A) - Data: 00 08  returns 0x02 (0000ms, 1833ms total)
T3584 2221:198 JLINK_ReadMemEx(0x0000000A, 0x0002 Bytes, ..., Flags = 0x02000000) -- Read from C cache (2 bytes @ 0x0800000A) - Data: 00 08  returns 0x02 (0000ms, 1833ms total)
T3584 2221:198 JLINK_ReadMemEx(0x0000000C, 0x003C Bytes, ..., Flags = 0x02000000) -- Read from C cache (60 bytes @ 0x0800000C) - Data: BB 01 00 08 BD 01 00 08 BF 01 00 08 C1 01 00 08 ...  returns 0x3C (0000ms, 1833ms total)
T3584 2221:198 JLINK_ReadMemEx(0x0000000C, 0x0002 Bytes, ..., Flags = 0x02000000) -- Read from C cache (2 bytes @ 0x0800000C) - Data: BB 01  returns 0x02 (0000ms, 1833ms total)
T3584 2221:198 JLINK_ReadMemEx(0x0000000C, 0x003C Bytes, ..., Flags = 0x02000000) -- Read from C cache (60 bytes @ 0x0800000C) - Data: BB 01 00 08 BD 01 00 08 BF 01 00 08 C1 01 00 08 ...  returns 0x3C (0000ms, 1833ms total)
T3584 2221:198 JLINK_ReadMemEx(0x0000000C, 0x0002 Bytes, ..., Flags = 0x02000000) -- Read from C cache (2 bytes @ 0x0800000C) - Data: BB 01  returns 0x02 (0000ms, 1833ms total)
T3584 2221:198 JLINK_ReadMemEx(0x0000000E, 0x0002 Bytes, ..., Flags = 0x02000000) -- Read from C cache (2 bytes @ 0x0800000E) - Data: 00 08  returns 0x02 (0000ms, 1833ms total)
T3584 2221:606 JLINK_ReadReg(R0)  returns 0x00000000 (0001ms, 1834ms total)
T3584 2221:607 JLINK_ReadReg(R1)  returns 0x00000002 (0000ms, 1834ms total)
T3584 2221:607 JLINK_ReadReg(R2)  returns 0x2000028C (0000ms, 1834ms total)
T3584 2221:607 JLINK_ReadReg(R3)  returns 0x00680300 (0000ms, 1834ms total)
T3584 2221:607 JLINK_ReadReg(R4)  returns 0x200002F4 (0000ms, 1834ms total)
T3584 2221:607 JLINK_ReadReg(R5)  returns 0x00000000 (0000ms, 1834ms total)
T3584 2221:607 JLINK_ReadReg(R6)  returns 0x00000000 (0000ms, 1834ms total)
T3584 2221:607 JLINK_ReadReg(R7)  returns 0x00000001 (0000ms, 1834ms total)
T3584 2221:607 JLINK_ReadReg(R8)  returns 0x00000000 (0000ms, 1834ms total)
T3584 2221:607 JLINK_ReadReg(R9)  returns 0x20000160 (0000ms, 1834ms total)
T3584 2221:607 JLINK_ReadReg(R10)  returns 0x080047B8 (0000ms, 1834ms total)
T3584 2221:607 JLINK_ReadReg(R11)  returns 0x00000000 (0000ms, 1834ms total)
T3584 2221:607 JLINK_ReadReg(R12)  returns 0x00000000 (0000ms, 1834ms total)
T3584 2221:607 JLINK_ReadReg(R13 (SP))  returns 0x200025F0 (0000ms, 1834ms total)
T3584 2221:607 JLINK_ReadReg(R14)  returns 0xFFFFFFFF (0000ms, 1834ms total)
T3584 2221:607 JLINK_ReadReg(R15 (PC))  returns 0x080001B0 (0000ms, 1834ms total)
T3584 2221:607 JLINK_ReadReg(XPSR)  returns 0x01000000 (0000ms, 1834ms total)
T3584 2221:607 JLINK_ReadReg(MSP)  returns 0x200025F0 (0000ms, 1834ms total)
T3584 2221:607 JLINK_ReadReg(PSP)  returns 0x20001000 (0000ms, 1834ms total)
T3584 2221:607 JLINK_ReadReg(CFBP)  returns 0x00000000 (0000ms, 1834ms total)
T3584 2221:607 JLINK_ReadMemU32(0xE0001004, 0x0001 Items, ...) - Data: 00 00 00 00  returns 1 (0000ms, 1834ms total)
T3584 2221:607 JLINK_ReadMemEx(0x40005800, 0x0020 Bytes, ..., Flags = 0x02000004) -- CPU_ReadMem(32 bytes @ 0x40005800) - Data: 00 00 00 00 00 00 00 00 00 00 00 00 00 00 00 00 ...  returns 0x20 (0001ms, 1835ms total)
T3584 2221:608 JLINK_ReadMemEx(0x40005820, 0x0004 Bytes, ..., Flags = 0x02000004) -- CPU_ReadMem(4 bytes @ 0x40005820) - Data: 00 00 00 00  returns 0x04 (0000ms, 1835ms total)
T3584 2221:608 JLINK_ReadMemEx(0x40010800, 0x000C Bytes, ..., Flags = 0x02000004) -- CPU_ReadMem(12 bytes @ 0x40010800) - Data: 44 44 44 44 44 44 84 88 00 00 00 00  returns 0x0C (0001ms, 1836ms total)
T3584 2221:609 JLINK_ReadMemEx(0x4001080C, 0x0004 Bytes, ..., Flags = 0x02000004) -- CPU_ReadMem(4 bytes @ 0x4001080C) - Data: 00 A0 00 00  returns 0x04 (0000ms, 1836ms total)
T3584 2221:609 JLINK_ReadMemEx(0x40010818, 0x0004 Bytes, ..., Flags = 0x02000004) -- CPU_ReadMem(4 bytes @ 0x40010818) - Data: 00 00 00 00  returns 0x04 (0001ms, 1837ms total)
T3584 2221:610 JLINK_ReadMemEx(0x40013000, 0x0020 Bytes, ..., Flags = 0x02000004) -- CPU_ReadMem(32 bytes @ 0x40013000) - Data: 00 00 00 00 00 00 00 00 00 00 00 00 00 00 00 00 ...  returns 0x20 (0001ms, 1838ms total)
T3584 2221:611 JLINK_ReadMemEx(0x40013020, 0x0004 Bytes, ..., Flags = 0x02000004) -- CPU_ReadMem(4 bytes @ 0x40013020) - Data: 00 00 00 00  returns 0x04 (0000ms, 1838ms total)
T3584 2221:611 JLINK_ReadMemEx(0x40013800, 0x0018 Bytes, ..., Flags = 0x02000004) -- CPU_ReadMem(24 bytes @ 0x40013800) - Data: 00 00 00 00 00 00 00 00 00 00 00 00 00 00 00 00 ...  returns 0x18 (0001ms, 1839ms total)
T3584 2221:612 JLINK_ReadMemEx(0x40013818, 0x0004 Bytes, ..., Flags = 0x02000004) -- CPU_ReadMem(4 bytes @ 0x40013818) - Data: 00 00 00 00  returns 0x04 (0001ms, 1840ms total)
T3584 2221:613 JLINK_ReadMemEx(0x40010C00, 0x000C Bytes, ..., Flags = 0x02000004) -- CPU_ReadMem(12 bytes @ 0x40010C00) - Data: 44 44 48 44 44 44 44 44 00 00 00 00  returns 0x0C (0000ms, 1840ms total)
T3584 2221:613 JLINK_ReadMemEx(0x40010C0C, 0x0004 Bytes, ..., Flags = 0x02000004) -- CPU_ReadMem(4 bytes @ 0x40010C0C) - Data: 10 00 00 00  returns 0x04 (0001ms, 1841ms total)
T3584 2221:614 JLINK_ReadMemEx(0x40010C18, 0x0004 Bytes, ..., Flags = 0x02000004) -- CPU_ReadMem(4 bytes @ 0x40010C18) - Data: 00 00 00 00  returns 0x04 (0000ms, 1841ms total)
T3584 2221:614 JLINK_ReadMemEx(0xE000E004, 0x0004 Bytes, ..., Flags = 0x02000004) -- CPU_ReadMem(4 bytes @ 0xE000E004) - Data: 01 00 00 00  returns 0x04 (0001ms, 1842ms total)
T3584 2221:615 JLINK_ReadMemEx(0xE000E100, 0x0004 Bytes, ..., Flags = 0x02000004) -- CPU_ReadMem(4 bytes @ 0xE000E100) - Data: 00 00 00 00  returns 0x04 (0000ms, 1842ms total)
T3584 2221:615 JLINK_ReadMemEx(0xE000E104, 0x0004 Bytes, ..., Flags = 0x02000004) -- CPU_ReadMem(4 bytes @ 0xE000E104) - Data: 00 00 00 00  returns 0x04 (0000ms, 1842ms total)
T3584 2221:615 JLINK_ReadMemEx(0xE000E180, 0x0004 Bytes, ..., Flags = 0x02000004) -- CPU_ReadMem(4 bytes @ 0xE000E180) - Data: 00 00 00 00  returns 0x04 (0001ms, 1843ms total)
T3584 2221:616 JLINK_ReadMemEx(0xE000E184, 0x0004 Bytes, ..., Flags = 0x02000004) -- CPU_ReadMem(4 bytes @ 0xE000E184) - Data: 00 00 00 00  returns 0x04 (0000ms, 1843ms total)
T3584 2221:616 JLINK_ReadMemEx(0xE000E200, 0x0004 Bytes, ..., Flags = 0x02000004) -- CPU_ReadMem(4 bytes @ 0xE000E200) - Data: 00 00 00 00  returns 0x04 (0001ms, 1844ms total)
T3584 2221:617 JLINK_ReadMemEx(0xE000E204, 0x0004 Bytes, ..., Flags = 0x02000004) -- CPU_ReadMem(4 bytes @ 0xE000E204) - Data: 00 00 00 00  returns 0x04 (0000ms, 1844ms total)
T3584 2221:617 JLINK_ReadMemEx(0xE000E280, 0x0004 Bytes, ..., Flags = 0x02000004) -- CPU_ReadMem(4 bytes @ 0xE000E280) - Data: 00 00 00 00  returns 0x04 (0000ms, 1844ms total)
T3584 2221:618 JLINK_ReadMemEx(0xE000E284, 0x0004 Bytes, ..., Flags = 0x02000004) -- CPU_ReadMem(4 bytes @ 0xE000E284) - Data: 00 00 00 00  returns 0x04 (0000ms, 1844ms total)
T3584 2221:618 JLINK_ReadMemEx(0xE000E300, 0x0004 Bytes, ..., Flags = 0x02000004) -- CPU_ReadMem(4 bytes @ 0xE000E300) - Data: 00 00 00 00  returns 0x04 (0000ms, 1844ms total)
T3584 2221:618 JLINK_ReadMemEx(0xE000E304, 0x0004 Bytes, ..., Flags = 0x02000004) -- CPU_ReadMem(4 bytes @ 0xE000E304) - Data: 00 00 00 00  returns 0x04 (0001ms, 1845ms total)
T3584 2221:619 JLINK_ReadMemEx(0xE000E400, 0x0038 Bytes, ..., Flags = 0x02000004) -- CPU_ReadMem(56 bytes @ 0xE000E400) - Data: 00 00 00 00 00 00 00 00 00 00 00 00 00 00 00 00 ...  returns 0x38 (0001ms, 1846ms total)
T3584 2221:620 JLINK_ReadMemEx(0xE000E438, 0x0004 Bytes, ..., Flags = 0x02000004) -- CPU_ReadMem(4 bytes @ 0xE000E438) - Data: 00 00 00 00  returns 0x04 (0000ms, 1846ms total)
T3584 2221:620 JLINK_ReadMemEx(0x40010400, 0x0014 Bytes, ..., Flags = 0x02000004) -- CPU_ReadMem(20 bytes @ 0x40010400) - Data: 00 00 00 00 00 00 00 00 00 00 00 00 00 00 00 00 ...  returns 0x14 (0001ms, 1847ms total)
T3584 2221:621 JLINK_ReadMemEx(0x40010414, 0x0004 Bytes, ..., Flags = 0x02000004) -- CPU_ReadMem(4 bytes @ 0x40010414) - Data: 00 00 00 00  returns 0x04 (0000ms, 1847ms total)
T3584 2221:622 JLINK_ReadMemEx(0x40010000, 0x0014 Bytes, ..., Flags = 0x02000004) -- CPU_ReadMem(20 bytes @ 0x40010000) - Data: 00 00 00 00 00 00 00 00 00 00 00 00 00 00 00 00 ...  returns 0x14 (0000ms, 1847ms total)
T3584 2221:622 JLINK_ReadMemEx(0x40010014, 0x0004 Bytes, ..., Flags = 0x02000004) -- CPU_ReadMem(4 bytes @ 0x40010014) - Data: 00 00 00 00  returns 0x04 (0001ms, 1848ms total)
T3584 2221:623 JLINK_ReadMemEx(0x4001001C, 0x0004 Bytes, ..., Flags = 0x02000004) -- CPU_ReadMem(4 bytes @ 0x4001001C) - Data: 00 00 00 00  returns 0x04 (0000ms, 1848ms total)
T3584 2221:623 JLINK_ReadMemEx(0x40011000, 0x000C Bytes, ..., Flags = 0x02000004) -- CPU_ReadMem(12 bytes @ 0x40011000) - Data: 44 44 44 44 44 44 44 44 00 00 00 00  returns 0x0C (0001ms, 1849ms total)
T3584 2221:624 JLINK_ReadMemEx(0x4001100C, 0x0004 Bytes, ..., Flags = 0x02000004) -- CPU_ReadMem(4 bytes @ 0x4001100C) - Data: 00 00 00 00  returns 0x04 (0000ms, 1849ms total)
T3584 2221:624 JLINK_ReadMemEx(0x40011018, 0x0004 Bytes, ..., Flags = 0x02000004) -- CPU_ReadMem(4 bytes @ 0x40011018) - Data: 00 00 00 00  returns 0x04 (0000ms, 1849ms total)
T3584 2221:625 JLINK_ReadMemEx(0x080001B0, 0x003C Bytes, ..., Flags = 0x02000000) -- CPU_ReadMem(128 bytes @ 0x08000180) -- Updating C cache (128 bytes @ 0x08000180) -- Read from C cache (60 bytes @ 0x080001B0) - Data: 09 48 80 47 09 48 00 47 FE E7 FE E7 FE E7 FE E7 ...  returns 0x3C (0001ms, 1850ms total)
T3584 2221:626 JLINK_ReadMemEx(0x080001B0, 0x0002 Bytes, ..., Flags = 0x02000000) -- Read from C cache (2 bytes @ 0x080001B0) - Data: 09 48  returns 0x02 (0000ms, 1850ms total)
T3584 2221:626 JLINK_ReadMemEx(0x080001B2, 0x0002 Bytes, ..., Flags = 0x02000000) -- Read from C cache (2 bytes @ 0x080001B2) - Data: 80 47  returns 0x02 (0000ms, 1850ms total)
T3584 2221:627 JLINK_ReadMemEx(0x080001B2, 0x0002 Bytes, ..., Flags = 0x02000000) -- Read from C cache (2 bytes @ 0x080001B2) - Data: 80 47  returns 0x02 (0000ms, 1850ms total)
T3584 2221:627 JLINK_ReadMemEx(0x080001B4, 0x003C Bytes, ..., Flags = 0x02000000) -- Read from C cache (60 bytes @ 0x080001B4) - Data: 09 48 00 47 FE E7 FE E7 FE E7 FE E7 FE E7 FE E7 ...  returns 0x3C (0000ms, 1850ms total)
T3584 2221:627 JLINK_ReadMemEx(0x080001B4, 0x0002 Bytes, ..., Flags = 0x02000000) -- Read from C cache (2 bytes @ 0x080001B4) - Data: 09 48  returns 0x02 (0000ms, 1850ms total)
T3584 2221:627 JLINK_ReadMemEx(0x080001B4, 0x003C Bytes, ..., Flags = 0x02000000) -- Read from C cache (60 bytes @ 0x080001B4) - Data: 09 48 00 47 FE E7 FE E7 FE E7 FE E7 FE E7 FE E7 ...  returns 0x3C (0000ms, 1850ms total)
T3584 2221:627 JLINK_ReadMemEx(0x080001B4, 0x0002 Bytes, ..., Flags = 0x02000000) -- Read from C cache (2 bytes @ 0x080001B4) - Data: 09 48  returns 0x02 (0000ms, 1850ms total)
T3584 2221:627 JLINK_ReadMemEx(0x080001B6, 0x0002 Bytes, ..., Flags = 0x02000000) -- Read from C cache (2 bytes @ 0x080001B6) - Data: 00 47  returns 0x02 (0000ms, 1850ms total)
T3584 2221:627 JLINK_ReadMemEx(0x080001B6, 0x0002 Bytes, ..., Flags = 0x02000000) -- Read from C cache (2 bytes @ 0x080001B6) - Data: 00 47  returns 0x02 (0000ms, 1850ms total)
T3584 2221:627 JLINK_ReadMemEx(0x080001B8, 0x003C Bytes, ..., Flags = 0x02000000) -- Read from C cache (60 bytes @ 0x080001B8) - Data: FE E7 FE E7 FE E7 FE E7 FE E7 FE E7 FE E7 FE E7 ...  returns 0x3C (0000ms, 1850ms total)
T3584 2221:627 JLINK_ReadMemEx(0x080001B8, 0x0002 Bytes, ..., Flags = 0x02000000) -- Read from C cache (2 bytes @ 0x080001B8) - Data: FE E7  returns 0x02 (0000ms, 1850ms total)
T3584 2221:627 JLINK_ReadMemEx(0x080001B8, 0x003C Bytes, ..., Flags = 0x02000000) -- Read from C cache (60 bytes @ 0x080001B8) - Data: FE E7 FE E7 FE E7 FE E7 FE E7 FE E7 FE E7 FE E7 ...  returns 0x3C (0000ms, 1850ms total)
T3584 2221:627 JLINK_ReadMemEx(0x080001B8, 0x0002 Bytes, ..., Flags = 0x02000000) -- Read from C cache (2 bytes @ 0x080001B8) - Data: FE E7  returns 0x02 (0000ms, 1850ms total)
T3584 2221:627 JLINK_ReadMemEx(0x080001BA, 0x0002 Bytes, ..., Flags = 0x02000000) -- Read from C cache (2 bytes @ 0x080001BA) - Data: FE E7  returns 0x02 (0000ms, 1850ms total)
T3584 2221:627 JLINK_ReadMemEx(0x080001BA, 0x0002 Bytes, ..., Flags = 0x02000000) -- Read from C cache (2 bytes @ 0x080001BA) - Data: FE E7  returns 0x02 (0000ms, 1850ms total)
T3584 2221:627 JLINK_ReadMemEx(0x080001BC, 0x003C Bytes, ..., Flags = 0x02000000) -- Read from C cache (60 bytes @ 0x080001BC) - Data: FE E7 FE E7 FE E7 FE E7 FE E7 FE E7 FE E7 FE E7 ...  returns 0x3C (0000ms, 1850ms total)
T3584 2221:627 JLINK_ReadMemEx(0x080001BC, 0x0002 Bytes, ..., Flags = 0x02000000) -- Read from C cache (2 bytes @ 0x080001BC) - Data: FE E7  returns 0x02 (0000ms, 1850ms total)
T3584 2221:627 JLINK_ReadMemEx(0x080001BC, 0x003C Bytes, ..., Flags = 0x02000000) -- Read from C cache (60 bytes @ 0x080001BC) - Data: FE E7 FE E7 FE E7 FE E7 FE E7 FE E7 FE E7 FE E7 ...  returns 0x3C (0000ms, 1850ms total)
T3584 2221:627 JLINK_ReadMemEx(0x080001BC, 0x0002 Bytes, ..., Flags = 0x02000000) -- Read from C cache (2 bytes @ 0x080001BC) - Data: FE E7  returns 0x02 (0000ms, 1850ms total)
T3584 2221:627 JLINK_ReadMemEx(0x080001BE, 0x0002 Bytes, ..., Flags = 0x02000000) -- Read from C cache (2 bytes @ 0x080001BE) - Data: FE E7  returns 0x02 (0000ms, 1850ms total)
T3584 2241:222 JLINK_Close() -- CPU_ReadMem(4 bytes @ 0xE0001000) -- CPU_WriteMem(4 bytes @ 0xE0001004) (0011ms, 1861ms total)
T3584 2241:222  (0011ms, 1861ms total)
T3584 2241:222 Closed (0011ms, 1861ms total)
